Circuit: *******************************************************************************************************

WARNING: Node 200 is floating.

Model "pmos": Oxide thickness thinner than recommended for a level 1 MOSFET.
Instance "m6": Length shorter than recommended for a level 1 MOSFET.
Instance "m4": Length shorter than recommended for a level 1 MOSFET.
Instance "m4": Width narrower than recommended for a level 1 MOSFET.
Instance "m3": Length shorter than recommended for a level 1 MOSFET.
Instance "m3": Width narrower than recommended for a level 1 MOSFET.
Model "nmos": Oxide thickness thinner than recommended for a level 1 MOSFET.
Instance "m8": Length shorter than recommended for a level 1 MOSFET.
Instance "m8": Width narrower than recommended for a level 1 MOSFET.
Instance "m5": Length shorter than recommended for a level 1 MOSFET.
Instance "m5": Width narrower than recommended for a level 1 MOSFET.
Instance "m7": Length shorter than recommended for a level 1 MOSFET.
Instance "m7": Width narrower than recommended for a level 1 MOSFET.
Instance "m2": Length shorter than recommended for a level 1 MOSFET.
Instance "m2": Width narrower than recommended for a level 1 MOSFET.
Instance "m1": Length shorter than recommended for a level 1 MOSFET.
Instance "m1": Width narrower than recommended for a level 1 MOSFET.
Direct Newton iteration for .op point succeeded.
Semiconductor Device Operating Points:
                        --- MOSFET Transistors ---
Name:          m6          m4          m3          m8          m5
Model:        pmos        pmos        pmos        nmos        nmos
Id:         -3.47e-05   -4.61e-06   -4.61e-06    8.54e-06    9.21e-06
Vgs:        -1.11e+00   -1.11e+00   -1.11e+00    1.04e+00    1.04e+00
Vds:        -2.50e+00   -1.11e+00   -1.11e+00    1.04e+00    1.62e+00
Vbs:         0.00e+00    0.00e+00    0.00e+00    0.00e+00    0.00e+00
Vth:        -9.01e-01   -9.01e-01   -9.01e-01    7.10e-01    7.10e-01
Vdsat:      -2.08e-01   -2.08e-01   -2.08e-01    3.29e-01    3.29e-01
Gm:          3.33e-04    4.42e-05    4.42e-05    5.19e-05    5.60e-05
Gds:         3.38e-07    4.56e-08    4.56e-08    8.45e-08    9.07e-08
Gmb:         2.15e-06    2.85e-07    2.85e-07    3.35e-07    3.61e-07
Cbd:         0.00e+00    0.00e+00    0.00e+00    0.00e+00    0.00e+00
Cbs:         0.00e+00    0.00e+00    0.00e+00    0.00e+00    0.00e+00
Cgsov:       7.62e-15    2.32e-16    2.32e-16    3.94e-17    4.23e-17
Cgdov:       7.62e-15    2.32e-16    2.32e-16    3.94e-17    4.23e-17
Cgbov:       0.00e+00    0.00e+00    0.00e+00    0.00e+00    0.00e+00
Cgs:         1.75e-12    1.21e-14    1.21e-14    2.06e-15    2.21e-15
Cgd:         0.00e+00    0.00e+00    0.00e+00    0.00e+00    0.00e+00
Cgb:         0.00e+00    0.00e+00    0.00e+00    0.00e+00    0.00e+00

Name:          m7          m2          m1
Model:        nmos        nmos        nmos
Id:          3.47e-05    4.61e-06    4.61e-06
Vgs:         1.04e+00    8.75e-01    8.75e-01
Vds:         2.50e+00    2.27e+00    2.27e+00
Vbs:         0.00e+00   -1.62e+00   -1.62e+00
Vth:         7.10e-01    7.17e-01    7.17e-01
Vdsat:       3.29e-01    1.58e-01    1.58e-01
Gm:          2.11e-04    5.84e-05    5.84e-05
Gds:         3.38e-07    4.51e-08    4.51e-08
Gmb:         1.36e-06    1.96e-07    1.96e-07
Cbd:         0.00e+00    0.00e+00    0.00e+00
Cbs:         0.00e+00    0.00e+00    0.00e+00
Cgsov:       1.58e-16    9.14e-17    9.14e-17
Cgdov:       1.58e-16    9.14e-17    9.14e-17
Cgbov:       0.00e+00    0.00e+00    0.00e+00
Cgs:         8.22e-15    4.77e-15    4.77e-15
Cgd:         0.00e+00    0.00e+00    0.00e+00
Cgb:         0.00e+00    0.00e+00    0.00e+00



Date: Tue Aug 08 17:38:52 2023
Total elapsed time: 0.024 seconds.

tnom = 27
temp = 27
method = trap
totiter = 10
traniter = 0
tranpoints = 0
accept = 0
rejected = 0
matrix size = 11
fillins = 0
solver = Normal
Matrix Compiler1: 1.02 KB object code size
Matrix Compiler2: 1.16 KB object code size
